
T205C 000:001 SEGGER J-Link V6.16c Log File (0001ms, 0002ms total)
T205C 000:001 DLL Compiled: Jun 16 2017 18:14:49 (0001ms, 0002ms total)
T205C 000:001 Logging started @ 2018-01-30 21:30 (0001ms, 0002ms total)
T205C 000:002 JLINK_SetWarnOutHandler(...) (0000ms, 0002ms total)
T205C 000:002 JLINK_OpenEx(...)
Firmware: J-Link OB-SAM3U128-V2-NordicSemi compiled Jul 24 2017 17:30:12
Hardware: V1.00
S/N: 682916446WEBSRV Webserver running on local port 19080 (0008ms, 0010ms total)
T205C 000:002   returns O.K. (0008ms, 0010ms total)
T205C 000:010 JLINK_GetEmuCaps()  returns 0xB8EA5A33 (0000ms, 0010ms total)
T205C 000:010 JLINK_TIF_GetAvailable(...) (0000ms, 0010ms total)
T205C 000:010 JLINK_SetErrorOutHandler(...) (0000ms, 0010ms total)
T205C 000:010 JLINK_ExecCommand("ProjectFile = "D:\iGit\IoTProgramming\examples\ble_peripheral\ble_app_try\pca10040\s132\arm5_no_packs\JLinkSettings.ini"", ...).   returns 0x00 (0093ms, 0103ms total)
T205C 000:106 JLINK_ExecCommand("Device = nRF52832_xxAA", ...). Device "NRF52832_XXAA" selected.  returns 0x00 (0004ms, 0107ms total)
T205C 000:110 JLINK_ExecCommand("DisableConnectionTimeout", ...).   returns 0x01 (0000ms, 0107ms total)
T205C 000:110 JLINK_GetHardwareVersion()  returns 0x2710 (0000ms, 0107ms total)
T205C 000:110 JLINK_GetDLLVersion()  returns 61603 (0000ms, 0107ms total)
T205C 000:110 JLINK_GetFirmwareString(...) (0000ms, 0107ms total)
T205C 000:115 JLINK_GetDLLVersion()  returns 61603 (0000ms, 0107ms total)
T205C 000:115 JLINK_GetCompileDateTime() (0000ms, 0107ms total)
T205C 000:116 JLINK_GetFirmwareString(...) (0001ms, 0108ms total)
T205C 000:118 JLINK_GetHardwareVersion()  returns 0x2710 (0000ms, 0108ms total)
T205C 000:124 JLINK_TIF_Select(JLINKARM_TIF_SWD)  returns 0x00 (0002ms, 0110ms total)
T205C 000:126 JLINK_SetSpeed(5000) (0000ms, 0110ms total)
T205C 000:126 JLINK_GetId() >0x10B TIF>Found SW-DP with ID 0x2BA01477 >0x0D TIF> >0x28 TIF> >0x0D TIF> >0x28 TIF> >0x10B TIF>Found SW-DP with ID 0x2BA01477 >0x0D TIF> >0x28 TIF> >0x0D TIF> >0x28 TIF> >0x0D TIF> >0x28 TIF> >0x0D TIF> >0x28 TIF> >0x35 TIF> >0x0D TIF> >0x28 TIF>Scanning APs, stopping at first AHB-AP found. >0x0D TIF> >0x28 TIF> >0x35 TIF> >0x35 TIF>AP[0] IDR: 0x24770011 (AHB-AP) >0x0D TIF> >0x28 TIF> >0x35 TIF> >0x35 TIF>AHB-AP ROM: 0xE00FF000 (Base addr. of first ROM table) >0x0D TIF>
 >0x28 TIF> >0x0D TIF> >0x28 TIF> >0x0D TIF> >0x28 TIF> >0x35 TIF> >0x35 TIF> >0x0D TIF> >0x28 TIF> >0x35 TIF> >0x35 TIF>CPUID reg: 0x410FC241. Implementer code: 0x41 (ARM)Found Cortex-M4 r0p1, Little endian. -- CPU_ReadMem(4 bytes @ 0xE000EDF0) -- CPU_WriteMem(4 bytes @ 0xE000EDF0) -- CPU_ReadMem(4 bytes @ 0xE0002000)FPUnit: 6 code (BP) slots and 2 literal slots -- CPU_ReadMem(4 bytes @ 0xE000EDFC) -- CPU_WriteMem(4 bytes @ 0xE000EDFC) -- CPU_ReadMem(4 bytes @ 0xE0001000)
 -- CPU_WriteMem(4 bytes @ 0xE0001000) -- CPU_ReadMem(4 bytes @ 0xE000ED88) -- CPU_WriteMem(4 bytes @ 0xE000ED88) -- CPU_ReadMem(4 bytes @ 0xE000ED88) -- CPU_WriteMem(4 bytes @ 0xE000ED88)CoreSight components:ROMTbl[0] @ E00FF000 -- CPU_ReadMem(16 bytes @ 0xE00FF000) -- CPU_ReadMem(16 bytes @ 0xE000EFF0) -- CPU_ReadMem(16 bytes @ 0xE000EFE0)ROMTbl[0][0]: E000E000, CID: B105E00D, PID: 000BB00C SCS -- CPU_ReadMem(16 bytes @ 0xE0001FF0) -- CPU_ReadMem(16 bytes @ 0xE0001FE0)
ROMTbl[0][1]: E0001000, CID: B105E00D, PID: 003BB002 DWT -- CPU_ReadMem(16 bytes @ 0xE0002FF0) -- CPU_ReadMem(16 bytes @ 0xE0002FE0)ROMTbl[0][2]: E0002000, CID: B105E00D, PID: 002BB003 FPB -- CPU_ReadMem(16 bytes @ 0xE0000FF0) -- CPU_ReadMem(16 bytes @ 0xE0000FE0)ROMTbl[0][3]: E0000000, CID: B105E00D, PID: 003BB001 ITM -- CPU_ReadMem(16 bytes @ 0xE00FF010) -- CPU_ReadMem(16 bytes @ 0xE0040FF0) -- CPU_ReadMem(16 bytes @ 0xE0040FE0)ROMTbl[0][4]: E0040000, CID: B105900D, PID: 000BB9A1 TPIU
 -- CPU_ReadMem(16 bytes @ 0xE0041FF0) -- CPU_ReadMem(16 bytes @ 0xE0041FE0)ROMTbl[0][5]: E0041000, CID: B105900D, PID: 000BB925 ETM >0x35 TIF>  returns 0x2BA01477 (0067ms, 0177ms total)
T205C 000:193 JLINK_GetDLLVersion()  returns 61603 (0000ms, 0177ms total)
T205C 000:193 JLINK_CORE_GetFound()  returns 0xE0000FF (0000ms, 0177ms total)
T205C 000:193 JLINK_GetDebugInfo(0x100 = JLINKARM_ROM_TABLE_ADDR_INDEX) -- Value=0xE00FF000  returns 0x00 (0000ms, 0177ms total)
T205C 000:194 JLINK_GetDebugInfo(0x100 = JLINKARM_ROM_TABLE_ADDR_INDEX) -- Value=0xE00FF000  returns 0x00 (0000ms, 0177ms total)
T205C 000:194 JLINK_GetDebugInfo(0x101 = JLINKARM_DEBUG_INFO_ETM_ADDR_INDEX) -- Value=0xE0041000  returns 0x00 (0000ms, 0177ms total)
T205C 000:194 JLINK_ReadMemEx(0xE0041FD0, 0x0020 Bytes, ..., Flags = 0x02000004) -- CPU_ReadMem(32 bytes @ 0xE0041FD0) - Data: 04 00 00 00 00 00 00 00 00 00 00 00 00 00 00 00 ...  returns 0x20 (0002ms, 0179ms total)
T205C 000:196 JLINK_GetDebugInfo(0x102 = JLINKARM_DEBUG_INFO_MTB_ADDR_INDEX) -- Value=0x00000000  returns 0x00 (0000ms, 0179ms total)
T205C 000:196 JLINK_GetDebugInfo(0x103 = JLINKARM_DEBUG_INFO_TPIU_ADDR_INDEX) -- Value=0xE0040000  returns 0x00 (0000ms, 0179ms total)
T205C 000:196 JLINK_GetDebugInfo(0x104 = JLINKARM_DEBUG_INFO_ITM_ADDR_INDEX) -- Value=0xE0000000  returns 0x00 (0000ms, 0179ms total)
T205C 000:196 JLINK_GetDebugInfo(0x105 = JLINKARM_DEBUG_INFO_DWT_ADDR_INDEX) -- Value=0xE0001000  returns 0x00 (0000ms, 0179ms total)
T205C 000:196 JLINK_GetDebugInfo(0x106 = JLINKARM_DEBUG_INFO_FPB_ADDR_INDEX) -- Value=0xE0002000  returns 0x00 (0000ms, 0179ms total)
T205C 000:196 JLINK_GetDebugInfo(0x107 = JLINKARM_DEBUG_INFO_NVIC_ADDR_INDEX) -- Value=0xE000E000  returns 0x00 (0000ms, 0179ms total)
T205C 000:196 JLINK_GetDebugInfo(0x10C = JLINKARM_DEBUG_INFO_DBG_ADDR_INDEX) -- Value=0xE000EDF0  returns 0x00 (0000ms, 0179ms total)
T205C 000:196 JLINK_ReadMemU32(0xE000EF40, 0x0001 Items, ...) -- CPU_ReadMem(4 bytes @ 0xE000EF40) - Data: 21 00 11 10  returns 0x01 (0001ms, 0180ms total)
T205C 000:197 JLINK_ReadMemU32(0xE000EF44, 0x0001 Items, ...) -- CPU_ReadMem(4 bytes @ 0xE000EF44) - Data: 11 00 00 11  returns 0x01 (0001ms, 0181ms total)
T205C 000:198 JLINK_ReadMemU32(0xE000ED00, 0x0001 Items, ...) -- CPU_ReadMem(4 bytes @ 0xE000ED00) - Data: 41 C2 0F 41  returns 0x01 (0001ms, 0182ms total)
T205C 000:199 JLINK_GetDebugInfo(0x10F = JLINKARM_DEBUG_INFO_HAS_CORTEX_M_SECURITY_EXT_INDEX) -- Value=0x00000000  returns 0x00 (0000ms, 0182ms total)
T205C 000:199 JLINK_SetResetType(JLINKARM_CM3_RESET_TYPE_NORMAL)  returns JLINKARM_CM3_RESET_TYPE_NORMAL (0000ms, 0182ms total)
T205C 000:199 JLINK_Reset() -- CPU is running -- CPU_WriteMem(4 bytes @ 0xE000EDF0) -- CPU is running -- CPU_WriteMem(4 bytes @ 0xE000EDFC) >0x35 TIF>Setting AIRCR.SYSRESETREQ -- CPU is running -- CPU_WriteMem(4 bytes @ 0xE000ED0C) >0x0D TIF> >0x28 TIF> -- CPU_ReadMem(4 bytes @ 0xE000ED0C) -- CPU_ReadMem(4 bytes @ 0xE000EDF0) -- CPU_ReadMem(4 bytes @ 0xE000EDF0) -- CPU_ReadMem(4 bytes @ 0xE000EDF0) -- CPU is running -- CPU_WriteMem(4 bytes @ 0xE000EDF0) -- CPU is running
 -- CPU_WriteMem(4 bytes @ 0xE000EDFC) -- CPU_ReadMem(4 bytes @ 0xE000EDF0) -- CPU_WriteMem(4 bytes @ 0xE0002000) -- CPU_ReadMem(4 bytes @ 0xE000EDFC) -- CPU_ReadMem(4 bytes @ 0xE0001000) (0081ms, 0263ms total)
T205C 000:280 JLINK_Halt()  returns 0x00 (0000ms, 0263ms total)
T205C 000:280 JLINK_ReadMemU32(0xE000EDF0, 0x0001 Items, ...) -- CPU_ReadMem(4 bytes @ 0xE000EDF0) - Data: 03 00 03 00  returns 0x01 (0002ms, 0265ms total)
T205C 000:282 JLINK_WriteU32(0xE000EDF0, 0xA05F0003) -- CPU_WriteMem(4 bytes @ 0xE000EDF0)  returns 0x00 (0001ms, 0266ms total)
T205C 000:283 JLINK_WriteU32(0xE000EDFC, 0x01000000) -- CPU_WriteMem(4 bytes @ 0xE000EDFC)  returns 0x00 (0001ms, 0267ms total)
T205C 000:290 JLINK_GetHWStatus(...)  returns 0x00 (0000ms, 0267ms total)
T205C 000:295 JLINK_GetNumBPUnits(Type = 0xFFFFFF00)  returns 0x06 (0000ms, 0267ms total)
T205C 000:295 JLINK_GetNumBPUnits(Type = 0xF0)  returns 0x2000 (0000ms, 0267ms total)
T205C 000:295 JLINK_GetNumWPUnits()  returns 0x04 (0000ms, 0267ms total)
T205C 000:299 JLINK_GetSpeed()  returns 0x3E8 (0000ms, 0267ms total)
T205C 000:303 JLINK_ReadMemU32(0xE000E004, 0x0001 Items, ...) -- CPU_ReadMem(4 bytes @ 0xE000E004) - Data: 01 00 00 00  returns 0x01 (0000ms, 0267ms total)
T205C 000:303 JLINK_ReadMemU32(0xE000E004, 0x0001 Items, ...) -- CPU_ReadMem(4 bytes @ 0xE000E004) - Data: 01 00 00 00  returns 0x01 (0001ms, 0268ms total)
T205C 000:304 JLINK_WriteMemEx(0xE0001000, 0x001C Bytes, ..., Flags = 0x02000004) - Data: 01 00 00 00 00 00 00 00 00 00 00 00 00 00 00 00 ... -- CPU_WriteMem(28 bytes @ 0xE0001000)  returns 0x1C (0002ms, 0270ms total)
T205C 000:306 JLINK_Halt()  returns 0x00 (0000ms, 0270ms total)
T205C 000:306 JLINK_IsHalted()  returns TRUE (0000ms, 0270ms total)
T205C 000:308 JLINK_WriteMem(0x20000000, 0x0234 Bytes, ...) - Data: 00 BE 0A E0 0D 78 2D 06 68 40 08 24 40 00 00 D3 ... -- CPU_WriteMem(564 bytes @ 0x20000000)  returns 0x234 (0010ms, 0280ms total)
T205C 000:318 JLINK_WriteReg(R0, 0x00000000)  returns 0x00 (0000ms, 0280ms total)
T205C 000:318 JLINK_WriteReg(R1, 0x03D09000)  returns 0x00 (0000ms, 0280ms total)
T205C 000:318 JLINK_WriteReg(R2, 0x00000001)  returns 0x00 (0000ms, 0280ms total)
T205C 000:318 JLINK_WriteReg(R3, 0x00000000)  returns 0x00 (0000ms, 0280ms total)
T205C 000:318 JLINK_WriteReg(R4, 0x00000000)  returns 0x00 (0000ms, 0280ms total)
T205C 000:318 JLINK_WriteReg(R5, 0x00000000)  returns 0x00 (0000ms, 0280ms total)
T205C 000:318 JLINK_WriteReg(R6, 0x00000000)  returns 0x00 (0000ms, 0280ms total)
T205C 000:318 JLINK_WriteReg(R7, 0x00000000)  returns 0x00 (0000ms, 0280ms total)
T205C 000:318 JLINK_WriteReg(R8, 0x00000000)  returns 0x00 (0000ms, 0280ms total)
T205C 000:318 JLINK_WriteReg(R9, 0x20000230)  returns 0x00 (0000ms, 0280ms total)
T205C 000:318 JLINK_WriteReg(R10, 0x00000000)  returns 0x00 (0000ms, 0280ms total)
T205C 000:318 JLINK_WriteReg(R11, 0x00000000)  returns 0x00 (0000ms, 0280ms total)
T205C 000:318 JLINK_WriteReg(R12, 0x00000000)  returns 0x00 (0000ms, 0280ms total)
T205C 000:318 JLINK_WriteReg(R13 (SP), 0x20002000)  returns 0x00 (0000ms, 0280ms total)
T205C 000:318 JLINK_WriteReg(R14, 0x20000001)  returns 0x00 (0000ms, 0280ms total)
T205C 000:318 JLINK_WriteReg(R15 (PC), 0x2000003C)  returns 0x00 (0000ms, 0280ms total)
T205C 000:318 JLINK_WriteReg(XPSR, 0x01000000)  returns 0x00 (0000ms, 0280ms total)
T205C 000:318 JLINK_WriteReg(MSP, 0x20002000)  returns 0x00 (0000ms, 0280ms total)
T205C 000:318 JLINK_WriteReg(PSP, 0x20002000)  returns 0x00 (0000ms, 0280ms total)
T205C 000:318 JLINK_WriteReg(CFBP, 0x00000000)  returns 0x00 (0000ms, 0280ms total)
T205C 000:318 JLINK_SetBPEx(Addr = 0x20000000, Type = 0xFFFFFFF2) -- CPU_ReadMem(2 bytes @ 0x20000000)  returns 0x00000001 (0000ms, 0280ms total)
T205C 000:318 JLINK_Go() -- CPU_WriteMem(2 bytes @ 0x20000000) -- CPU_ReadMem(4 bytes @ 0xE0001000) -- CPU_WriteMem(4 bytes @ 0xE0002008) -- CPU_WriteMem(4 bytes @ 0xE000200C) -- CPU_WriteMem(4 bytes @ 0xE0002010) -- CPU_WriteMem(4 bytes @ 0xE0002014) -- CPU_WriteMem(4 bytes @ 0xE0002018) -- CPU_WriteMem(4 bytes @ 0xE000201C) -- CPU_WriteMem(4 bytes @ 0xE0001004) (0010ms, 0290ms total)
T205C 000:328 JLINK_IsHalted() -- CPU_ReadMem(2 bytes @ 0x20000000)  returns TRUE (0008ms, 0298ms total)
T205C 000:336 JLINK_ReadReg(R15 (PC))  returns 0x20000000 (0000ms, 0290ms total)
T205C 000:336 JLINK_ClrBPEx(BPHandle = 0x00000001)  returns 0x00 (0000ms, 0290ms total)
T205C 000:336 JLINK_ReadReg(R0)  returns 0x00000000 (0000ms, 0290ms total)
T205C 000:336 JLINK_WriteReg(R0, 0x00023000)  returns 0x00 (0000ms, 0290ms total)
T205C 000:336 JLINK_WriteReg(R1, 0x00001000)  returns 0x00 (0000ms, 0290ms total)
T205C 000:336 JLINK_WriteReg(R2, 0x000000FF)  returns 0x00 (0000ms, 0290ms total)
T205C 000:336 JLINK_WriteReg(R3, 0x00000000)  returns 0x00 (0000ms, 0290ms total)
T205C 000:336 JLINK_WriteReg(R4, 0x00000000)  returns 0x00 (0000ms, 0290ms total)
T205C 000:336 JLINK_WriteReg(R5, 0x00000000)  returns 0x00 (0000ms, 0290ms total)
T205C 000:336 JLINK_WriteReg(R6, 0x00000000)  returns 0x00 (0000ms, 0290ms total)
T205C 000:336 JLINK_WriteReg(R7, 0x00000000)  returns 0x00 (0000ms, 0290ms total)
T205C 000:336 JLINK_WriteReg(R8, 0x00000000)  returns 0x00 (0000ms, 0290ms total)
T205C 000:336 JLINK_WriteReg(R9, 0x20000230)  returns 0x00 (0000ms, 0290ms total)
T205C 000:336 JLINK_WriteReg(R10, 0x00000000)  returns 0x00 (0000ms, 0290ms total)
T205C 000:336 JLINK_WriteReg(R11, 0x00000000)  returns 0x00 (0000ms, 0290ms total)
T205C 000:336 JLINK_WriteReg(R12, 0x00000000)  returns 0x00 (0000ms, 0290ms total)
T205C 000:336 JLINK_WriteReg(R13 (SP), 0x20002000)  returns 0x00 (0000ms, 0290ms total)
T205C 000:336 JLINK_WriteReg(R14, 0x20000001)  returns 0x00 (0000ms, 0290ms total)
T205C 000:336 JLINK_WriteReg(R15 (PC), 0x2000011A)  returns 0x00 (0000ms, 0290ms total)
T205C 000:336 JLINK_WriteReg(XPSR, 0x01000000)  returns 0x00 (0000ms, 0290ms total)
T205C 000:336 JLINK_WriteReg(MSP, 0x20002000)  returns 0x00 (0000ms, 0290ms total)
T205C 000:336 JLINK_WriteReg(PSP, 0x20002000)  returns 0x00 (0000ms, 0290ms total)
T205C 000:336 JLINK_WriteReg(CFBP, 0x00000000)  returns 0x00 (0000ms, 0290ms total)
T205C 000:336 JLINK_SetBPEx(Addr = 0x20000000, Type = 0xFFFFFFF2)  returns 0x00000002 (0000ms, 0290ms total)
T205C 000:336 JLINK_Go() -- CPU_ReadMem(4 bytes @ 0xE0001000) (0005ms, 0295ms total)
T205C 000:341 JLINK_IsHalted() -- CPU_ReadMem(2 bytes @ 0x20000000)  returns TRUE (0009ms, 0304ms total)
T205C 000:350 JLINK_ReadReg(R15 (PC))  returns 0x20000000 (0000ms, 0295ms total)
T205C 000:350 JLINK_ClrBPEx(BPHandle = 0x00000002)  returns 0x00 (0000ms, 0295ms total)
T205C 000:350 JLINK_ReadReg(R0)  returns 0x00000000 (0000ms, 0295ms total)
T205C 000:350 JLINK_WriteReg(R0, 0x00024000)  returns 0x00 (0000ms, 0295ms total)
T205C 000:350 JLINK_WriteReg(R1, 0x00001000)  returns 0x00 (0000ms, 0295ms total)
T205C 000:350 JLINK_WriteReg(R2, 0x000000FF)  returns 0x00 (0000ms, 0295ms total)
T205C 000:350 JLINK_WriteReg(R3, 0x00000000)  returns 0x00 (0000ms, 0295ms total)
T205C 000:350 JLINK_WriteReg(R4, 0x00000000)  returns 0x00 (0000ms, 0295ms total)
T205C 000:350 JLINK_WriteReg(R5, 0x00000000)  returns 0x00 (0000ms, 0295ms total)
T205C 000:350 JLINK_WriteReg(R6, 0x00000000)  returns 0x00 (0000ms, 0295ms total)
T205C 000:350 JLINK_WriteReg(R7, 0x00000000)  returns 0x00 (0000ms, 0295ms total)
T205C 000:350 JLINK_WriteReg(R8, 0x00000000)  returns 0x00 (0000ms, 0295ms total)
T205C 000:350 JLINK_WriteReg(R9, 0x20000230)  returns 0x00 (0000ms, 0295ms total)
T205C 000:350 JLINK_WriteReg(R10, 0x00000000)  returns 0x00 (0000ms, 0295ms total)
T205C 000:350 JLINK_WriteReg(R11, 0x00000000)  returns 0x00 (0000ms, 0295ms total)
T205C 000:350 JLINK_WriteReg(R12, 0x00000000)  returns 0x00 (0000ms, 0295ms total)
T205C 000:350 JLINK_WriteReg(R13 (SP), 0x20002000)  returns 0x00 (0000ms, 0295ms total)
T205C 000:350 JLINK_WriteReg(R14, 0x20000001)  returns 0x00 (0000ms, 0295ms total)
T205C 000:350 JLINK_WriteReg(R15 (PC), 0x2000011A)  returns 0x00 (0000ms, 0295ms total)
T205C 000:350 JLINK_WriteReg(XPSR, 0x01000000)  returns 0x00 (0000ms, 0295ms total)
T205C 000:350 JLINK_WriteReg(MSP, 0x20002000)  returns 0x00 (0000ms, 0295ms total)
T205C 000:350 JLINK_WriteReg(PSP, 0x20002000)  returns 0x00 (0000ms, 0295ms total)
T205C 000:350 JLINK_WriteReg(CFBP, 0x00000000)  returns 0x00 (0000ms, 0295ms total)
T205C 000:350 JLINK_SetBPEx(Addr = 0x20000000, Type = 0xFFFFFFF2)  returns 0x00000003 (0000ms, 0295ms total)
T205C 000:350 JLINK_Go() -- CPU_ReadMem(4 bytes @ 0xE0001000) (0004ms, 0299ms total)
T205C 000:354 JLINK_IsHalted()  returns FALSE (0001ms, 0300ms total)
T205C 000:374 JLINK_IsHalted() -- CPU_ReadMem(2 bytes @ 0x20000000)  returns TRUE (0007ms, 0306ms total)
T205C 000:381 JLINK_ReadReg(R15 (PC))  returns 0x20000000 (0000ms, 0299ms total)
T205C 000:381 JLINK_ClrBPEx(BPHandle = 0x00000003)  returns 0x00 (0000ms, 0299ms total)
T205C 000:381 JLINK_ReadReg(R0)  returns 0x00000000 (0000ms, 0299ms total)
T205C 000:381 JLINK_WriteReg(R0, 0x00025000)  returns 0x00 (0000ms, 0299ms total)
T205C 000:381 JLINK_WriteReg(R1, 0x00001000)  returns 0x00 (0001ms, 0300ms total)
T205C 000:382 JLINK_WriteReg(R2, 0x000000FF)  returns 0x00 (0000ms, 0300ms total)
T205C 000:382 JLINK_WriteReg(R3, 0x00000000)  returns 0x00 (0000ms, 0300ms total)
T205C 000:382 JLINK_WriteReg(R4, 0x00000000)  returns 0x00 (0000ms, 0300ms total)
T205C 000:382 JLINK_WriteReg(R5, 0x00000000)  returns 0x00 (0000ms, 0300ms total)
T205C 000:382 JLINK_WriteReg(R6, 0x00000000)  returns 0x00 (0000ms, 0300ms total)
T205C 000:382 JLINK_WriteReg(R7, 0x00000000)  returns 0x00 (0000ms, 0300ms total)
T205C 000:382 JLINK_WriteReg(R8, 0x00000000)  returns 0x00 (0000ms, 0300ms total)
T205C 000:382 JLINK_WriteReg(R9, 0x20000230)  returns 0x00 (0000ms, 0300ms total)
T205C 000:382 JLINK_WriteReg(R10, 0x00000000)  returns 0x00 (0000ms, 0300ms total)
T205C 000:382 JLINK_WriteReg(R11, 0x00000000)  returns 0x00 (0000ms, 0300ms total)
T205C 000:382 JLINK_WriteReg(R12, 0x00000000)  returns 0x00 (0000ms, 0300ms total)
T205C 000:382 JLINK_WriteReg(R13 (SP), 0x20002000)  returns 0x00 (0000ms, 0300ms total)
T205C 000:382 JLINK_WriteReg(R14, 0x20000001)  returns 0x00 (0000ms, 0300ms total)
T205C 000:382 JLINK_WriteReg(R15 (PC), 0x2000011A)  returns 0x00 (0000ms, 0300ms total)
T205C 000:382 JLINK_WriteReg(XPSR, 0x01000000)  returns 0x00 (0000ms, 0300ms total)
T205C 000:382 JLINK_WriteReg(MSP, 0x20002000)  returns 0x00 (0000ms, 0300ms total)
T205C 000:382 JLINK_WriteReg(PSP, 0x20002000)  returns 0x00 (0000ms, 0300ms total)
T205C 000:382 JLINK_WriteReg(CFBP, 0x00000000)  returns 0x00 (0000ms, 0300ms total)
T205C 000:382 JLINK_SetBPEx(Addr = 0x20000000, Type = 0xFFFFFFF2)  returns 0x00000004 (0000ms, 0300ms total)
T205C 000:382 JLINK_Go() -- CPU_ReadMem(4 bytes @ 0xE0001000) (0005ms, 0305ms total)
T205C 000:387 JLINK_IsHalted() -- CPU_ReadMem(2 bytes @ 0x20000000)  returns TRUE (0009ms, 0314ms total)
T205C 000:396 JLINK_ReadReg(R15 (PC))  returns 0x20000000 (0000ms, 0305ms total)
T205C 000:396 JLINK_ClrBPEx(BPHandle = 0x00000004)  returns 0x00 (0000ms, 0305ms total)
T205C 000:396 JLINK_ReadReg(R0)  returns 0x00000000 (0000ms, 0305ms total)
T205C 000:396 JLINK_WriteReg(R0, 0x00026000)  returns 0x00 (0000ms, 0305ms total)
T205C 000:396 JLINK_WriteReg(R1, 0x00001000)  returns 0x00 (0000ms, 0305ms total)
T205C 000:396 JLINK_WriteReg(R2, 0x000000FF)  returns 0x00 (0000ms, 0305ms total)
T205C 000:396 JLINK_WriteReg(R3, 0x00000000)  returns 0x00 (0000ms, 0305ms total)
T205C 000:396 JLINK_WriteReg(R4, 0x00000000)  returns 0x00 (0000ms, 0305ms total)
T205C 000:396 JLINK_WriteReg(R5, 0x00000000)  returns 0x00 (0000ms, 0305ms total)
T205C 000:396 JLINK_WriteReg(R6, 0x00000000)  returns 0x00 (0000ms, 0305ms total)
T205C 000:396 JLINK_WriteReg(R7, 0x00000000)  returns 0x00 (0000ms, 0305ms total)
T205C 000:396 JLINK_WriteReg(R8, 0x00000000)  returns 0x00 (0000ms, 0305ms total)
T205C 000:396 JLINK_WriteReg(R9, 0x20000230)  returns 0x00 (0000ms, 0305ms total)
T205C 000:396 JLINK_WriteReg(R10, 0x00000000)  returns 0x00 (0000ms, 0305ms total)
T205C 000:396 JLINK_WriteReg(R11, 0x00000000)  returns 0x00 (0000ms, 0305ms total)
T205C 000:396 JLINK_WriteReg(R12, 0x00000000)  returns 0x00 (0000ms, 0305ms total)
T205C 000:396 JLINK_WriteReg(R13 (SP), 0x20002000)  returns 0x00 (0000ms, 0305ms total)
T205C 000:396 JLINK_WriteReg(R14, 0x20000001)  returns 0x00 (0000ms, 0305ms total)
T205C 000:396 JLINK_WriteReg(R15 (PC), 0x2000011A)  returns 0x00 (0000ms, 0305ms total)
T205C 000:396 JLINK_WriteReg(XPSR, 0x01000000)  returns 0x00 (0000ms, 0305ms total)
T205C 000:396 JLINK_WriteReg(MSP, 0x20002000)  returns 0x00 (0000ms, 0305ms total)
T205C 000:396 JLINK_WriteReg(PSP, 0x20002000)  returns 0x00 (0000ms, 0305ms total)
T205C 000:396 JLINK_WriteReg(CFBP, 0x00000000)  returns 0x00 (0000ms, 0305ms total)
T205C 000:396 JLINK_SetBPEx(Addr = 0x20000000, Type = 0xFFFFFFF2)  returns 0x00000005 (0000ms, 0305ms total)
T205C 000:396 JLINK_Go() -- CPU_ReadMem(4 bytes @ 0xE0001000) (0005ms, 0310ms total)
T205C 000:401 JLINK_IsHalted() -- CPU_ReadMem(2 bytes @ 0x20000000)  returns TRUE (0008ms, 0318ms total)
T205C 000:409 JLINK_ReadReg(R15 (PC))  returns 0x20000000 (0000ms, 0310ms total)
T205C 000:409 JLINK_ClrBPEx(BPHandle = 0x00000005)  returns 0x00 (0000ms, 0310ms total)
T205C 000:409 JLINK_ReadReg(R0)  returns 0x00000000 (0000ms, 0310ms total)
T205C 000:409 JLINK_WriteReg(R0, 0x00027000)  returns 0x00 (0000ms, 0310ms total)
T205C 000:409 JLINK_WriteReg(R1, 0x00001000)  returns 0x00 (0000ms, 0310ms total)
T205C 000:409 JLINK_WriteReg(R2, 0x000000FF)  returns 0x00 (0000ms, 0310ms total)
T205C 000:409 JLINK_WriteReg(R3, 0x00000000)  returns 0x00 (0000ms, 0310ms total)
T205C 000:409 JLINK_WriteReg(R4, 0x00000000)  returns 0x00 (0000ms, 0310ms total)
T205C 000:409 JLINK_WriteReg(R5, 0x00000000)  returns 0x00 (0000ms, 0310ms total)
T205C 000:409 JLINK_WriteReg(R6, 0x00000000)  returns 0x00 (0000ms, 0310ms total)
T205C 000:409 JLINK_WriteReg(R7, 0x00000000)  returns 0x00 (0000ms, 0310ms total)
T205C 000:409 JLINK_WriteReg(R8, 0x00000000)  returns 0x00 (0000ms, 0310ms total)
T205C 000:409 JLINK_WriteReg(R9, 0x20000230)  returns 0x00 (0000ms, 0310ms total)
T205C 000:409 JLINK_WriteReg(R10, 0x00000000)  returns 0x00 (0000ms, 0310ms total)
T205C 000:409 JLINK_WriteReg(R11, 0x00000000)  returns 0x00 (0000ms, 0310ms total)
T205C 000:409 JLINK_WriteReg(R12, 0x00000000)  returns 0x00 (0000ms, 0310ms total)
T205C 000:409 JLINK_WriteReg(R13 (SP), 0x20002000)  returns 0x00 (0000ms, 0310ms total)
T205C 000:409 JLINK_WriteReg(R14, 0x20000001)  returns 0x00 (0000ms, 0310ms total)
T205C 000:409 JLINK_WriteReg(R15 (PC), 0x2000011A)  returns 0x00 (0000ms, 0310ms total)
T205C 000:409 JLINK_WriteReg(XPSR, 0x01000000)  returns 0x00 (0000ms, 0310ms total)
T205C 000:409 JLINK_WriteReg(MSP, 0x20002000)  returns 0x00 (0000ms, 0310ms total)
T205C 000:409 JLINK_WriteReg(PSP, 0x20002000)  returns 0x00 (0000ms, 0310ms total)
T205C 000:409 JLINK_WriteReg(CFBP, 0x00000000)  returns 0x00 (0000ms, 0310ms total)
T205C 000:409 JLINK_SetBPEx(Addr = 0x20000000, Type = 0xFFFFFFF2)  returns 0x00000006 (0000ms, 0310ms total)
T205C 000:409 JLINK_Go() -- CPU_ReadMem(4 bytes @ 0xE0001000) (0003ms, 0313ms total)
T205C 000:412 JLINK_IsHalted()  returns FALSE (0001ms, 0314ms total)
T205C 000:415 JLINK_IsHalted() -- CPU_ReadMem(2 bytes @ 0x20000000)  returns TRUE (0007ms, 0320ms total)
T205C 000:422 JLINK_ReadReg(R15 (PC))  returns 0x20000000 (0000ms, 0313ms total)
T205C 000:422 JLINK_ClrBPEx(BPHandle = 0x00000006)  returns 0x00 (0000ms, 0313ms total)
T205C 000:422 JLINK_ReadReg(R0)  returns 0x00000000 (0000ms, 0313ms total)
T205C 000:423 JLINK_WriteReg(R0, 0x00028000)  returns 0x00 (0000ms, 0313ms total)
T205C 000:423 JLINK_WriteReg(R1, 0x00001000)  returns 0x00 (0000ms, 0313ms total)
T205C 000:423 JLINK_WriteReg(R2, 0x000000FF)  returns 0x00 (0000ms, 0313ms total)
T205C 000:423 JLINK_WriteReg(R3, 0x00000000)  returns 0x00 (0000ms, 0313ms total)
T205C 000:423 JLINK_WriteReg(R4, 0x00000000)  returns 0x00 (0000ms, 0313ms total)
T205C 000:423 JLINK_WriteReg(R5, 0x00000000)  returns 0x00 (0000ms, 0313ms total)
T205C 000:423 JLINK_WriteReg(R6, 0x00000000)  returns 0x00 (0000ms, 0313ms total)
T205C 000:423 JLINK_WriteReg(R7, 0x00000000)  returns 0x00 (0000ms, 0313ms total)
T205C 000:423 JLINK_WriteReg(R8, 0x00000000)  returns 0x00 (0000ms, 0313ms total)
T205C 000:423 JLINK_WriteReg(R9, 0x20000230)  returns 0x00 (0000ms, 0313ms total)
T205C 000:423 JLINK_WriteReg(R10, 0x00000000)  returns 0x00 (0000ms, 0313ms total)
T205C 000:423 JLINK_WriteReg(R11, 0x00000000)  returns 0x00 (0000ms, 0313ms total)
T205C 000:423 JLINK_WriteReg(R12, 0x00000000)  returns 0x00 (0000ms, 0313ms total)
T205C 000:423 JLINK_WriteReg(R13 (SP), 0x20002000)  returns 0x00 (0000ms, 0313ms total)
T205C 000:423 JLINK_WriteReg(R14, 0x20000001)  returns 0x00 (0000ms, 0313ms total)
T205C 000:423 JLINK_WriteReg(R15 (PC), 0x2000011A)  returns 0x00 (0000ms, 0313ms total)
T205C 000:423 JLINK_WriteReg(XPSR, 0x01000000)  returns 0x00 (0000ms, 0313ms total)
T205C 000:423 JLINK_WriteReg(MSP, 0x20002000)  returns 0x00 (0000ms, 0313ms total)
T205C 000:423 JLINK_WriteReg(PSP, 0x20002000)  returns 0x00 (0000ms, 0313ms total)
T205C 000:423 JLINK_WriteReg(CFBP, 0x00000000)  returns 0x00 (0000ms, 0313ms total)
T205C 000:423 JLINK_SetBPEx(Addr = 0x20000000, Type = 0xFFFFFFF2)  returns 0x00000007 (0000ms, 0313ms total)
T205C 000:423 JLINK_Go() -- CPU_ReadMem(4 bytes @ 0xE0001000) (0003ms, 0316ms total)
T205C 000:426 JLINK_IsHalted()  returns FALSE (0001ms, 0317ms total)
T205C 000:429 JLINK_IsHalted() -- CPU_ReadMem(2 bytes @ 0x20000000)  returns TRUE (0007ms, 0323ms total)
T205C 000:436 JLINK_ReadReg(R15 (PC))  returns 0x20000000 (0000ms, 0316ms total)
T205C 000:436 JLINK_ClrBPEx(BPHandle = 0x00000007)  returns 0x00 (0000ms, 0316ms total)
T205C 000:436 JLINK_ReadReg(R0)  returns 0x00000000 (0000ms, 0316ms total)
T205C 000:438 JLINK_WriteReg(R0, 0x00029000)  returns 0x00 (0000ms, 0316ms total)
T205C 000:438 JLINK_WriteReg(R1, 0x00001000)  returns 0x00 (0000ms, 0316ms total)
T205C 000:438 JLINK_WriteReg(R2, 0x000000FF)  returns 0x00 (0000ms, 0316ms total)
T205C 000:438 JLINK_WriteReg(R3, 0x00000000)  returns 0x00 (0000ms, 0316ms total)
T205C 000:438 JLINK_WriteReg(R4, 0x00000000)  returns 0x00 (0000ms, 0316ms total)
T205C 000:438 JLINK_WriteReg(R5, 0x00000000)  returns 0x00 (0000ms, 0316ms total)
T205C 000:438 JLINK_WriteReg(R6, 0x00000000)  returns 0x00 (0000ms, 0316ms total)
T205C 000:438 JLINK_WriteReg(R7, 0x00000000)  returns 0x00 (0000ms, 0316ms total)
T205C 000:438 JLINK_WriteReg(R8, 0x00000000)  returns 0x00 (0000ms, 0316ms total)
T205C 000:438 JLINK_WriteReg(R9, 0x20000230)  returns 0x00 (0000ms, 0316ms total)
T205C 000:438 JLINK_WriteReg(R10, 0x00000000)  returns 0x00 (0000ms, 0316ms total)
T205C 000:438 JLINK_WriteReg(R11, 0x00000000)  returns 0x00 (0000ms, 0316ms total)
T205C 000:438 JLINK_WriteReg(R12, 0x00000000)  returns 0x00 (0000ms, 0316ms total)
T205C 000:438 JLINK_WriteReg(R13 (SP), 0x20002000)  returns 0x00 (0000ms, 0316ms total)
T205C 000:438 JLINK_WriteReg(R14, 0x20000001)  returns 0x00 (0000ms, 0316ms total)
T205C 000:438 JLINK_WriteReg(R15 (PC), 0x2000011A)  returns 0x00 (0000ms, 0316ms total)
T205C 000:438 JLINK_WriteReg(XPSR, 0x01000000)  returns 0x00 (0000ms, 0316ms total)
T205C 000:438 JLINK_WriteReg(MSP, 0x20002000)  returns 0x00 (0000ms, 0316ms total)
T205C 000:438 JLINK_WriteReg(PSP, 0x20002000)  returns 0x00 (0000ms, 0316ms total)
T205C 000:438 JLINK_WriteReg(CFBP, 0x00000000)  returns 0x00 (0000ms, 0316ms total)
T205C 000:438 JLINK_SetBPEx(Addr = 0x20000000, Type = 0xFFFFFFF2)  returns 0x00000008 (0000ms, 0316ms total)
T205C 000:438 JLINK_Go() -- CPU_ReadMem(4 bytes @ 0xE0001000) (0004ms, 0320ms total)
T205C 000:442 JLINK_IsHalted()  returns FALSE (0001ms, 0321ms total)
T205C 000:445 JLINK_IsHalted() -- CPU_ReadMem(2 bytes @ 0x20000000)  returns TRUE (0008ms, 0328ms total)
T205C 000:453 JLINK_ReadReg(R15 (PC))  returns 0x20000000 (0000ms, 0320ms total)
T205C 000:453 JLINK_ClrBPEx(BPHandle = 0x00000008)  returns 0x00 (0000ms, 0320ms total)
T205C 000:453 JLINK_ReadReg(R0)  returns 0x00000000 (0000ms, 0320ms total)
T205C 000:453 JLINK_WriteReg(R0, 0x0002A000)  returns 0x00 (0000ms, 0320ms total)
T205C 000:453 JLINK_WriteReg(R1, 0x00001000)  returns 0x00 (0000ms, 0320ms total)
T205C 000:453 JLINK_WriteReg(R2, 0x000000FF)  returns 0x00 (0000ms, 0320ms total)
T205C 000:453 JLINK_WriteReg(R3, 0x00000000)  returns 0x00 (0000ms, 0320ms total)
T205C 000:453 JLINK_WriteReg(R4, 0x00000000)  returns 0x00 (0000ms, 0320ms total)
T205C 000:453 JLINK_WriteReg(R5, 0x00000000)  returns 0x00 (0000ms, 0320ms total)
T205C 000:453 JLINK_WriteReg(R6, 0x00000000)  returns 0x00 (0000ms, 0320ms total)
T205C 000:453 JLINK_WriteReg(R7, 0x00000000)  returns 0x00 (0000ms, 0320ms total)
T205C 000:453 JLINK_WriteReg(R8, 0x00000000)  returns 0x00 (0000ms, 0320ms total)
T205C 000:453 JLINK_WriteReg(R9, 0x20000230)  returns 0x00 (0000ms, 0320ms total)
T205C 000:453 JLINK_WriteReg(R10, 0x00000000)  returns 0x00 (0000ms, 0320ms total)
T205C 000:453 JLINK_WriteReg(R11, 0x00000000)  returns 0x00 (0000ms, 0320ms total)
T205C 000:453 JLINK_WriteReg(R12, 0x00000000)  returns 0x00 (0000ms, 0320ms total)
T205C 000:453 JLINK_WriteReg(R13 (SP), 0x20002000)  returns 0x00 (0000ms, 0320ms total)
T205C 000:453 JLINK_WriteReg(R14, 0x20000001)  returns 0x00 (0000ms, 0320ms total)
T205C 000:453 JLINK_WriteReg(R15 (PC), 0x2000011A)  returns 0x00 (0000ms, 0320ms total)
T205C 000:453 JLINK_WriteReg(XPSR, 0x01000000)  returns 0x00 (0000ms, 0320ms total)
T205C 000:453 JLINK_WriteReg(MSP, 0x20002000)  returns 0x00 (0000ms, 0320ms total)
T205C 000:453 JLINK_WriteReg(PSP, 0x20002000)  returns 0x00 (0000ms, 0320ms total)
T205C 000:453 JLINK_WriteReg(CFBP, 0x00000000)  returns 0x00 (0000ms, 0320ms total)
T205C 000:453 JLINK_SetBPEx(Addr = 0x20000000, Type = 0xFFFFFFF2)  returns 0x00000009 (0000ms, 0320ms total)
T205C 000:453 JLINK_Go() -- CPU_ReadMem(4 bytes @ 0xE0001000) (0003ms, 0323ms total)
T205C 000:456 JLINK_IsHalted()  returns FALSE (0001ms, 0324ms total)
T205C 000:461 JLINK_IsHalted() -- CPU_ReadMem(2 bytes @ 0x20000000)  returns TRUE (0007ms, 0330ms total)
T205C 000:468 JLINK_ReadReg(R15 (PC))  returns 0x20000000 (0000ms, 0323ms total)
T205C 000:468 JLINK_ClrBPEx(BPHandle = 0x00000009)  returns 0x00 (0000ms, 0323ms total)
T205C 000:468 JLINK_ReadReg(R0)  returns 0x00000000 (0000ms, 0323ms total)
T205C 000:469 JLINK_WriteReg(R0, 0x00000001)  returns 0x00 (0000ms, 0323ms total)
T205C 000:469 JLINK_WriteReg(R1, 0x00001000)  returns 0x00 (0000ms, 0323ms total)
T205C 000:469 JLINK_WriteReg(R2, 0x000000FF)  returns 0x00 (0000ms, 0323ms total)
T205C 000:469 JLINK_WriteReg(R3, 0x00000000)  returns 0x00 (0000ms, 0323ms total)
T205C 000:469 JLINK_WriteReg(R4, 0x00000000)  returns 0x00 (0000ms, 0323ms total)
T205C 000:469 JLINK_WriteReg(R5, 0x00000000)  returns 0x00 (0000ms, 0323ms total)
T205C 000:469 JLINK_WriteReg(R6, 0x00000000)  returns 0x00 (0000ms, 0323ms total)
T205C 000:469 JLINK_WriteReg(R7, 0x00000000)  returns 0x00 (0000ms, 0323ms total)
T205C 000:469 JLINK_WriteReg(R8, 0x00000000)  returns 0x00 (0000ms, 0323ms total)
T205C 000:469 JLINK_WriteReg(R9, 0x20000230)  returns 0x00 (0000ms, 0323ms total)
T205C 000:469 JLINK_WriteReg(R10, 0x00000000)  returns 0x00 (0000ms, 0323ms total)
T205C 000:469 JLINK_WriteReg(R11, 0x00000000)  returns 0x00 (0000ms, 0323ms total)
T205C 000:469 JLINK_WriteReg(R12, 0x00000000)  returns 0x00 (0000ms, 0323ms total)
T205C 000:469 JLINK_WriteReg(R13 (SP), 0x20002000)  returns 0x00 (0000ms, 0323ms total)
T205C 000:469 JLINK_WriteReg(R14, 0x20000001)  returns 0x00 (0000ms, 0323ms total)
T205C 000:469 JLINK_WriteReg(R15 (PC), 0x2000008E)  returns 0x00 (0000ms, 0323ms total)
T205C 000:469 JLINK_WriteReg(XPSR, 0x01000000)  returns 0x00 (0000ms, 0323ms total)
T205C 000:469 JLINK_WriteReg(MSP, 0x20002000)  returns 0x00 (0000ms, 0323ms total)
T205C 000:469 JLINK_WriteReg(PSP, 0x20002000)  returns 0x00 (0000ms, 0323ms total)
T205C 000:469 JLINK_WriteReg(CFBP, 0x00000000)  returns 0x00 (0000ms, 0323ms total)
T205C 000:469 JLINK_SetBPEx(Addr = 0x20000000, Type = 0xFFFFFFF2)  returns 0x0000000A (0000ms, 0323ms total)
T205C 000:469 JLINK_Go() -- CPU_ReadMem(4 bytes @ 0xE0001000) (0004ms, 0327ms total)
T205C 000:473 JLINK_IsHalted() -- CPU_ReadMem(2 bytes @ 0x20000000)  returns TRUE (0009ms, 0336ms total)
T205C 000:482 JLINK_ReadReg(R15 (PC))  returns 0x20000000 (0000ms, 0327ms total)
T205C 000:482 JLINK_ClrBPEx(BPHandle = 0x0000000A)  returns 0x00 (0000ms, 0327ms total)
T205C 000:482 JLINK_ReadReg(R0)  returns 0x00000000 (0000ms, 0327ms total)
T205C 000:537 JLINK_WriteMem(0x20000000, 0x0234 Bytes, ...) - Data: 00 BE 0A E0 0D 78 2D 06 68 40 08 24 40 00 00 D3 ... -- CPU_WriteMem(564 bytes @ 0x20000000)  returns 0x234 (0009ms, 0336ms total)
T205C 000:546 JLINK_WriteReg(R0, 0x00000000)  returns 0x00 (0000ms, 0336ms total)
T205C 000:546 JLINK_WriteReg(R1, 0x03D09000)  returns 0x00 (0000ms, 0336ms total)
T205C 000:546 JLINK_WriteReg(R2, 0x00000002)  returns 0x00 (0000ms, 0336ms total)
T205C 000:546 JLINK_WriteReg(R3, 0x00000000)  returns 0x00 (0000ms, 0336ms total)
T205C 000:546 JLINK_WriteReg(R4, 0x00000000)  returns 0x00 (0000ms, 0336ms total)
T205C 000:546 JLINK_WriteReg(R5, 0x00000000)  returns 0x00 (0000ms, 0336ms total)
T205C 000:546 JLINK_WriteReg(R6, 0x00000000)  returns 0x00 (0000ms, 0336ms total)
T205C 000:546 JLINK_WriteReg(R7, 0x00000000)  returns 0x00 (0000ms, 0336ms total)
T205C 000:546 JLINK_WriteReg(R8, 0x00000000)  returns 0x00 (0000ms, 0336ms total)
T205C 000:546 JLINK_WriteReg(R9, 0x20000230)  returns 0x00 (0000ms, 0336ms total)
T205C 000:546 JLINK_WriteReg(R10, 0x00000000)  returns 0x00 (0000ms, 0336ms total)
T205C 000:546 JLINK_WriteReg(R11, 0x00000000)  returns 0x00 (0000ms, 0336ms total)
T205C 000:546 JLINK_WriteReg(R12, 0x00000000)  returns 0x00 (0000ms, 0336ms total)
T205C 000:546 JLINK_WriteReg(R13 (SP), 0x20002000)  returns 0x00 (0000ms, 0336ms total)
T205C 000:546 JLINK_WriteReg(R14, 0x20000001)  returns 0x00 (0000ms, 0336ms total)
T205C 000:546 JLINK_WriteReg(R15 (PC), 0x2000003C)  returns 0x00 (0000ms, 0336ms total)
T205C 000:546 JLINK_WriteReg(XPSR, 0x01000000)  returns 0x00 (0000ms, 0336ms total)
T205C 000:546 JLINK_WriteReg(MSP, 0x20002000)  returns 0x00 (0000ms, 0336ms total)
T205C 000:546 JLINK_WriteReg(PSP, 0x20002000)  returns 0x00 (0000ms, 0336ms total)
T205C 000:546 JLINK_WriteReg(CFBP, 0x00000000)  returns 0x00 (0000ms, 0336ms total)
T205C 000:546 JLINK_SetBPEx(Addr = 0x20000000, Type = 0xFFFFFFF2) -- CPU_ReadMem(2 bytes @ 0x20000000)  returns 0x0000000B (0000ms, 0336ms total)
T205C 000:546 JLINK_Go() -- CPU_WriteMem(2 bytes @ 0x20000000) -- CPU_ReadMem(4 bytes @ 0xE0001000) (0005ms, 0341ms total)
T205C 000:551 JLINK_IsHalted() -- CPU_ReadMem(2 bytes @ 0x20000000)  returns TRUE (0009ms, 0350ms total)
T205C 000:560 JLINK_ReadReg(R15 (PC))  returns 0x20000000 (0000ms, 0341ms total)
T205C 000:560 JLINK_ClrBPEx(BPHandle = 0x0000000B)  returns 0x00 (0000ms, 0341ms total)
T205C 000:560 JLINK_ReadReg(R0)  returns 0x00000000 (0000ms, 0341ms total)
T205C 000:561 JLINK_WriteMem(0x20000234, 0x01CC Bytes, ...) - Data: 00 87 00 20 15 32 02 00 1D 32 02 00 1F 32 02 00 ... -- CPU_WriteMem(460 bytes @ 0x20000234)  returns 0x1CC (0007ms, 0348ms total)
T205C 000:568 JLINK_WriteMem(0x20000400, 0x0400 Bytes, ...) - Data: 00 00 00 00 00 00 00 00 00 00 00 00 00 00 00 00 ... -- CPU_WriteMem(1024 bytes @ 0x20000400)  returns 0x400 (0014ms, 0362ms total)
T205C 000:582 JLINK_WriteMem(0x20000800, 0x0400 Bytes, ...) - Data: 82 ED 05 3A C2 ED 06 3A 82 ED 07 4A 20 32 BA F1 ... -- CPU_WriteMem(1024 bytes @ 0x20000800)  returns 0x400 (0015ms, 0377ms total)
T205C 000:597 JLINK_WriteMem(0x20000C00, 0x0400 Bytes, ...) - Data: C5 F3 0A 57 02 46 C5 F3 13 03 C1 F3 13 00 C1 F3 ... -- CPU_WriteMem(1024 bytes @ 0x20000C00)  returns 0x400 (0015ms, 0392ms total)
T205C 000:612 JLINK_WriteMem(0x20001000, 0x0234 Bytes, ...) - Data: A0 A6 02 00 00 48 70 47 7C A6 02 00 2D E9 F0 5F ... -- CPU_WriteMem(564 bytes @ 0x20001000)  returns 0x234 (0008ms, 0400ms total)
T205C 000:620 JLINK_WriteReg(R0, 0x00023000)  returns 0x00 (0001ms, 0401ms total)
T205C 000:621 JLINK_WriteReg(R1, 0x00001000)  returns 0x00 (0000ms, 0401ms total)
T205C 000:621 JLINK_WriteReg(R2, 0x20000234)  returns 0x00 (0000ms, 0401ms total)
T205C 000:621 JLINK_WriteReg(R3, 0x00000000)  returns 0x00 (0000ms, 0401ms total)
T205C 000:621 JLINK_WriteReg(R4, 0x00000000)  returns 0x00 (0000ms, 0401ms total)
T205C 000:621 JLINK_WriteReg(R5, 0x00000000)  returns 0x00 (0000ms, 0401ms total)
T205C 000:621 JLINK_WriteReg(R6, 0x00000000)  returns 0x00 (0000ms, 0401ms total)
T205C 000:621 JLINK_WriteReg(R7, 0x00000000)  returns 0x00 (0000ms, 0401ms total)
T205C 000:621 JLINK_WriteReg(R8, 0x00000000)  returns 0x00 (0000ms, 0401ms total)
T205C 000:621 JLINK_WriteReg(R9, 0x20000230)  returns 0x00 (0000ms, 0401ms total)
T205C 000:621 JLINK_WriteReg(R10, 0x00000000)  returns 0x00 (0000ms, 0401ms total)
T205C 000:621 JLINK_WriteReg(R11, 0x00000000)  returns 0x00 (0000ms, 0401ms total)
T205C 000:621 JLINK_WriteReg(R12, 0x00000000)  returns 0x00 (0000ms, 0401ms total)
T205C 000:621 JLINK_WriteReg(R13 (SP), 0x20002000)  returns 0x00 (0000ms, 0401ms total)
T205C 000:621 JLINK_WriteReg(R14, 0x20000001)  returns 0x00 (0000ms, 0401ms total)
T205C 000:621 JLINK_WriteReg(R15 (PC), 0x20000156)  returns 0x00 (0000ms, 0401ms total)
T205C 000:621 JLINK_WriteReg(XPSR, 0x01000000)  returns 0x00 (0000ms, 0401ms total)
T205C 000:621 JLINK_WriteReg(MSP, 0x20002000)  returns 0x00 (0000ms, 0401ms total)
T205C 000:621 JLINK_WriteReg(PSP, 0x20002000)  returns 0x00 (0000ms, 0401ms total)
T205C 000:622 JLINK_WriteReg(CFBP, 0x00000000)  returns 0x00 (0000ms, 0402ms total)
T205C 000:622 JLINK_SetBPEx(Addr = 0x20000000, Type = 0xFFFFFFF2)  returns 0x0000000C (0000ms, 0402ms total)
T205C 000:622 JLINK_Go() -- CPU_ReadMem(4 bytes @ 0xE0001000) (0005ms, 0407ms total)
T205C 000:627 JLINK_IsHalted()  returns FALSE (0001ms, 0408ms total)
T205C 000:638 JLINK_IsHalted()  returns FALSE (0001ms, 0408ms total)
T205C 000:641 JLINK_IsHalted()  returns FALSE (0001ms, 0408ms total)
T205C 000:644 JLINK_IsHalted()  returns FALSE (0001ms, 0408ms total)
T205C 000:646 JLINK_IsHalted()  returns FALSE (0001ms, 0408ms total)
T205C 000:649 JLINK_IsHalted()  returns FALSE (0001ms, 0408ms total)
T205C 000:652 JLINK_IsHalted()  returns FALSE (0001ms, 0408ms total)
T205C 000:654 JLINK_IsHalted()  returns FALSE (0001ms, 0408ms total)
T205C 000:657 JLINK_IsHalted()  returns FALSE (0000ms, 0407ms total)
T205C 000:659 JLINK_IsHalted()  returns FALSE (0001ms, 0408ms total)
T205C 000:661 JLINK_IsHalted()  returns FALSE (0001ms, 0408ms total)
T205C 000:664 JLINK_IsHalted()  returns FALSE (0000ms, 0407ms total)
T205C 000:667 JLINK_IsHalted()  returns FALSE (0000ms, 0407ms total)
T205C 000:669 JLINK_IsHalted()  returns FALSE (0000ms, 0407ms total)
T205C 000:671 JLINK_IsHalted()  returns FALSE (0000ms, 0407ms total)
T205C 000:673 JLINK_IsHalted()  returns FALSE (0001ms, 0408ms total)
T205C 000:676 JLINK_IsHalted()  returns FALSE (0000ms, 0407ms total)
T205C 000:682 JLINK_IsHalted()  returns FALSE (0001ms, 0408ms total)
T205C 000:685 JLINK_IsHalted()  returns FALSE (0001ms, 0408ms total)
T205C 000:688 JLINK_IsHalted()  returns FALSE (0001ms, 0408ms total)
T205C 000:691 JLINK_IsHalted()  returns FALSE (0001ms, 0408ms total)
T205C 000:693 JLINK_IsHalted()  returns FALSE (0001ms, 0408ms total)
T205C 000:696 JLINK_IsHalted() -- CPU_ReadMem(2 bytes @ 0x20000000)  returns TRUE (0008ms, 0415ms total)
T205C 000:704 JLINK_ReadReg(R15 (PC))  returns 0x20000000 (0000ms, 0407ms total)
T205C 000:704 JLINK_ClrBPEx(BPHandle = 0x0000000C)  returns 0x00 (0000ms, 0407ms total)
T205C 000:704 JLINK_ReadReg(R0)  returns 0x00000000 (0000ms, 0407ms total)
T205C 000:706 JLINK_WriteMem(0x20000234, 0x01CC Bytes, ...) - Data: 03 21 E2 E7 0C B0 BD E8 F0 87 00 00 00 60 00 40 ... -- CPU_WriteMem(460 bytes @ 0x20000234)  returns 0x1CC (0007ms, 0414ms total)
T205C 000:713 JLINK_WriteMem(0x20000400, 0x0400 Bytes, ...) - Data: 03 26 64 37 3E 60 0A E0 16 78 36 07 04 D1 06 78 ... -- CPU_WriteMem(1024 bytes @ 0x20000400)  returns 0x400 (0014ms, 0428ms total)
T205C 000:727 JLINK_WriteMem(0x20000800, 0x0400 Bytes, ...) - Data: 0D E0 00 21 FA E7 0A 99 4F F0 0A 09 01 C9 0A 91 ... -- CPU_WriteMem(1024 bytes @ 0x20000800)  returns 0x400 (0016ms, 0444ms total)
T205C 000:743 JLINK_WriteMem(0x20000C00, 0x0400 Bytes, ...) - Data: B0 70 20 68 40 1C 04 D0 9D F8 1D 00 18 B1 06 E0 ... -- CPU_WriteMem(1024 bytes @ 0x20000C00)  returns 0x400 (0015ms, 0459ms total)
T205C 000:758 JLINK_WriteMem(0x20001000, 0x0234 Bytes, ...) - Data: 68 78 84 F8 31 00 D5 E9 04 01 C4 E9 10 01 D5 E9 ... -- CPU_WriteMem(564 bytes @ 0x20001000)  returns 0x234 (0009ms, 0468ms total)
T205C 000:767 JLINK_WriteReg(R0, 0x00024000)  returns 0x00 (0000ms, 0468ms total)
T205C 000:767 JLINK_WriteReg(R1, 0x00001000)  returns 0x00 (0000ms, 0468ms total)
T205C 000:767 JLINK_WriteReg(R2, 0x20000234)  returns 0x00 (0000ms, 0468ms total)
T205C 000:767 JLINK_WriteReg(R3, 0x00000000)  returns 0x00 (0000ms, 0468ms total)
T205C 000:767 JLINK_WriteReg(R4, 0x00000000)  returns 0x00 (0000ms, 0468ms total)
T205C 000:767 JLINK_WriteReg(R5, 0x00000000)  returns 0x00 (0000ms, 0468ms total)
T205C 000:767 JLINK_WriteReg(R6, 0x00000000)  returns 0x00 (0000ms, 0468ms total)
T205C 000:767 JLINK_WriteReg(R7, 0x00000000)  returns 0x00 (0000ms, 0468ms total)
T205C 000:767 JLINK_WriteReg(R8, 0x00000000)  returns 0x00 (0000ms, 0468ms total)
T205C 000:767 JLINK_WriteReg(R9, 0x20000230)  returns 0x00 (0000ms, 0468ms total)
T205C 000:767 JLINK_WriteReg(R10, 0x00000000)  returns 0x00 (0000ms, 0468ms total)
T205C 000:767 JLINK_WriteReg(R11, 0x00000000)  returns 0x00 (0000ms, 0468ms total)
T205C 000:767 JLINK_WriteReg(R12, 0x00000000)  returns 0x00 (0000ms, 0468ms total)
T205C 000:767 JLINK_WriteReg(R13 (SP), 0x20002000)  returns 0x00 (0000ms, 0468ms total)
T205C 000:767 JLINK_WriteReg(R14, 0x20000001)  returns 0x00 (0000ms, 0468ms total)
T205C 000:767 JLINK_WriteReg(R15 (PC), 0x20000156)  returns 0x00 (0000ms, 0468ms total)
T205C 000:767 JLINK_WriteReg(XPSR, 0x01000000)  returns 0x00 (0000ms, 0468ms total)
T205C 000:767 JLINK_WriteReg(MSP, 0x20002000)  returns 0x00 (0000ms, 0468ms total)
T205C 000:767 JLINK_WriteReg(PSP, 0x20002000)  returns 0x00 (0000ms, 0468ms total)
T205C 000:768 JLINK_WriteReg(CFBP, 0x00000000)  returns 0x00 (0000ms, 0469ms total)
T205C 000:768 JLINK_SetBPEx(Addr = 0x20000000, Type = 0xFFFFFFF2)  returns 0x0000000D (0000ms, 0469ms total)
T205C 000:768 JLINK_Go() -- CPU_ReadMem(4 bytes @ 0xE0001000) (0004ms, 0473ms total)
T205C 000:772 JLINK_IsHalted()  returns FALSE (0000ms, 0473ms total)
T205C 000:784 JLINK_IsHalted()  returns FALSE (0001ms, 0474ms total)
T205C 000:787 JLINK_IsHalted()  returns FALSE (0000ms, 0473ms total)
T205C 000:792 JLINK_IsHalted()  returns FALSE (0002ms, 0475ms total)
T205C 000:795 JLINK_IsHalted()  returns FALSE (0001ms, 0474ms total)
T205C 000:798 JLINK_IsHalted()  returns FALSE (0001ms, 0474ms total)
T205C 000:801 JLINK_IsHalted()  returns FALSE (0001ms, 0474ms total)
T205C 000:804 JLINK_IsHalted()  returns FALSE (0001ms, 0474ms total)
T205C 000:806 JLINK_IsHalted()  returns FALSE (0001ms, 0474ms total)
T205C 000:809 JLINK_IsHalted()  returns FALSE (0001ms, 0474ms total)
T205C 000:812 JLINK_IsHalted()  returns FALSE (0001ms, 0474ms total)
T205C 000:814 JLINK_IsHalted()  returns FALSE (0002ms, 0475ms total)
T205C 000:817 JLINK_IsHalted()  returns FALSE (0001ms, 0474ms total)
T205C 000:820 JLINK_IsHalted()  returns FALSE (0001ms, 0474ms total)
T205C 000:822 JLINK_IsHalted()  returns FALSE (0001ms, 0474ms total)
T205C 000:825 JLINK_IsHalted()  returns FALSE (0001ms, 0474ms total)
T205C 000:828 JLINK_IsHalted()  returns FALSE (0002ms, 0475ms total)
T205C 000:831 JLINK_IsHalted()  returns FALSE (0001ms, 0474ms total)
T205C 000:834 JLINK_IsHalted()  returns FALSE (0001ms, 0474ms total)
T205C 000:837 JLINK_IsHalted()  returns FALSE (0001ms, 0474ms total)
T205C 000:840 JLINK_IsHalted()  returns FALSE (0001ms, 0474ms total)
T205C 000:853 JLINK_IsHalted() -- CPU_ReadMem(2 bytes @ 0x20000000)  returns TRUE (0007ms, 0480ms total)
T205C 000:860 JLINK_ReadReg(R15 (PC))  returns 0x20000000 (0001ms, 0474ms total)
T205C 000:861 JLINK_ClrBPEx(BPHandle = 0x0000000D)  returns 0x00 (0000ms, 0474ms total)
T205C 000:861 JLINK_ReadReg(R0)  returns 0x00000000 (0000ms, 0474ms total)
T205C 000:862 JLINK_WriteMem(0x20000234, 0x01CC Bytes, ...) - Data: 04 2F 12 D1 0D E0 A1 79 11 B1 08 B1 30 46 0D E0 ... -- CPU_WriteMem(460 bytes @ 0x20000234)  returns 0x1CC (0008ms, 0482ms total)
T205C 000:870 JLINK_WriteMem(0x20000400, 0x0400 Bytes, ...) - Data: 40 1C 80 B2 20 80 29 54 20 88 40 1C 80 B2 20 80 ... -- CPU_WriteMem(1024 bytes @ 0x20000400)  returns 0x400 (0015ms, 0497ms total)
T205C 000:885 JLINK_WriteMem(0x20000800, 0x0400 Bytes, ...) - Data: 80 FB 00 28 03 D1 29 46 20 46 04 F0 5B FB 05 B0 ... -- CPU_WriteMem(1024 bytes @ 0x20000800)  returns 0x400 (0015ms, 0512ms total)
T205C 000:900 JLINK_WriteMem(0x20000C00, 0x0400 Bytes, ...) - Data: F8 B5 04 00 15 D0 60 6A 98 B1 00 20 8D F8 00 00 ... -- CPU_WriteMem(1024 bytes @ 0x20000C00)  returns 0x400 (0015ms, 0527ms total)
T205C 000:915 JLINK_WriteMem(0x20001000, 0x0234 Bytes, ...) - Data: FF 30 00 21 5C 5C 94 42 01 D1 08 46 10 BD 49 1C ... -- CPU_WriteMem(564 bytes @ 0x20001000)  returns 0x234 (0008ms, 0535ms total)
T205C 000:923 JLINK_WriteReg(R0, 0x00025000)  returns 0x00 (0000ms, 0535ms total)
T205C 000:923 JLINK_WriteReg(R1, 0x00001000)  returns 0x00 (0000ms, 0535ms total)
T205C 000:923 JLINK_WriteReg(R2, 0x20000234)  returns 0x00 (0000ms, 0535ms total)
T205C 000:923 JLINK_WriteReg(R3, 0x00000000)  returns 0x00 (0000ms, 0535ms total)
T205C 000:923 JLINK_WriteReg(R4, 0x00000000)  returns 0x00 (0000ms, 0535ms total)
T205C 000:923 JLINK_WriteReg(R5, 0x00000000)  returns 0x00 (0000ms, 0535ms total)
T205C 000:923 JLINK_WriteReg(R6, 0x00000000)  returns 0x00 (0000ms, 0535ms total)
T205C 000:923 JLINK_WriteReg(R7, 0x00000000)  returns 0x00 (0000ms, 0535ms total)
T205C 000:923 JLINK_WriteReg(R8, 0x00000000)  returns 0x00 (0000ms, 0535ms total)
T205C 000:923 JLINK_WriteReg(R9, 0x20000230)  returns 0x00 (0000ms, 0535ms total)
T205C 000:923 JLINK_WriteReg(R10, 0x00000000)  returns 0x00 (0001ms, 0536ms total)
T205C 000:924 JLINK_WriteReg(R11, 0x00000000)  returns 0x00 (0000ms, 0536ms total)
T205C 000:924 JLINK_WriteReg(R12, 0x00000000)  returns 0x00 (0000ms, 0536ms total)
T205C 000:924 JLINK_WriteReg(R13 (SP), 0x20002000)  returns 0x00 (0000ms, 0536ms total)
T205C 000:924 JLINK_WriteReg(R14, 0x20000001)  returns 0x00 (0000ms, 0536ms total)
T205C 000:924 JLINK_WriteReg(R15 (PC), 0x20000156)  returns 0x00 (0000ms, 0536ms total)
T205C 000:924 JLINK_WriteReg(XPSR, 0x01000000)  returns 0x00 (0000ms, 0536ms total)
T205C 000:924 JLINK_WriteReg(MSP, 0x20002000)  returns 0x00 (0000ms, 0536ms total)
T205C 000:924 JLINK_WriteReg(PSP, 0x20002000)  returns 0x00 (0000ms, 0536ms total)
T205C 000:924 JLINK_WriteReg(CFBP, 0x00000000)  returns 0x00 (0000ms, 0536ms total)
T205C 000:924 JLINK_SetBPEx(Addr = 0x20000000, Type = 0xFFFFFFF2)  returns 0x0000000E (0000ms, 0536ms total)
T205C 000:924 JLINK_Go() -- CPU_ReadMem(4 bytes @ 0xE0001000) (0004ms, 0540ms total)
T205C 000:928 JLINK_IsHalted()  returns FALSE (0002ms, 0542ms total)
T205C 000:934 JLINK_IsHalted()  returns FALSE (0001ms, 0541ms total)
T205C 000:937 JLINK_IsHalted()  returns FALSE (0000ms, 0540ms total)
T205C 000:939 JLINK_IsHalted()  returns FALSE (0001ms, 0541ms total)
T205C 000:942 JLINK_IsHalted()  returns FALSE (0001ms, 0541ms total)
T205C 000:945 JLINK_IsHalted()  returns FALSE (0001ms, 0541ms total)
T205C 000:948 JLINK_IsHalted()  returns FALSE (0001ms, 0541ms total)
T205C 000:951 JLINK_IsHalted()  returns FALSE (0001ms, 0541ms total)
T205C 000:953 JLINK_IsHalted()  returns FALSE (0001ms, 0541ms total)
T205C 000:956 JLINK_IsHalted()  returns FALSE (0002ms, 0542ms total)
T205C 000:959 JLINK_IsHalted()  returns FALSE (0001ms, 0541ms total)
T205C 000:961 JLINK_IsHalted()  returns FALSE (0001ms, 0541ms total)
T205C 000:964 JLINK_IsHalted()  returns FALSE (0001ms, 0541ms total)
T205C 000:967 JLINK_IsHalted()  returns FALSE (0001ms, 0541ms total)
T205C 000:970 JLINK_IsHalted()  returns FALSE (0001ms, 0541ms total)
T205C 000:972 JLINK_IsHalted()  returns FALSE (0001ms, 0541ms total)
T205C 000:975 JLINK_IsHalted()  returns FALSE (0001ms, 0541ms total)
T205C 000:978 JLINK_IsHalted()  returns FALSE (0001ms, 0541ms total)
T205C 000:981 JLINK_IsHalted()  returns FALSE (0001ms, 0541ms total)
T205C 000:984 JLINK_IsHalted()  returns FALSE (0000ms, 0540ms total)
T205C 000:986 JLINK_IsHalted()  returns FALSE (0001ms, 0541ms total)
T205C 000:989 JLINK_IsHalted()  returns FALSE (0001ms, 0541ms total)
T205C 000:992 JLINK_IsHalted()  returns FALSE (0001ms, 0541ms total)
T205C 000:994 JLINK_IsHalted()  returns FALSE (0001ms, 0541ms total)
T205C 000:998 JLINK_IsHalted() -- CPU_ReadMem(2 bytes @ 0x20000000)  returns TRUE (0008ms, 0548ms total)
T205C 001:006 JLINK_ReadReg(R15 (PC))  returns 0x20000000 (0000ms, 0540ms total)
T205C 001:006 JLINK_ClrBPEx(BPHandle = 0x0000000E)  returns 0x00 (0000ms, 0540ms total)
T205C 001:006 JLINK_ReadReg(R0)  returns 0x00000000 (0000ms, 0540ms total)
T205C 001:008 JLINK_WriteMem(0x20000234, 0x01CC Bytes, ...) - Data: C8 A4 02 00 DD 61 02 00 C9 71 02 00 CD 46 02 00 ... -- CPU_WriteMem(460 bytes @ 0x20000234)  returns 0x1CC (0006ms, 0546ms total)
T205C 001:014 JLINK_WriteMem(0x20000400, 0x0400 Bytes, ...) - Data: 8B FD 03 21 02 F0 65 FA 00 20 10 BD 00 F0 94 BE ... -- CPU_WriteMem(1024 bytes @ 0x20000400)  returns 0x400 (0015ms, 0561ms total)
T205C 001:029 JLINK_WriteMem(0x20000800, 0x0400 Bytes, ...) - Data: 00 00 00 00 00 00 00 00 00 00 5C 40 00 00 00 00 ... -- CPU_WriteMem(1024 bytes @ 0x20000800)  returns 0x400 (0015ms, 0576ms total)
T205C 001:044 JLINK_WriteMem(0x20000C00, 0x0400 Bytes, ...) - Data: 81 00 8D F8 00 00 21 78 20 F0 30 00 C1 F3 81 01 ... -- CPU_WriteMem(1024 bytes @ 0x20000C00)  returns 0x400 (0015ms, 0591ms total)
T205C 001:059 JLINK_WriteMem(0x20001000, 0x0234 Bytes, ...) - Data: 01 A9 30 46 00 94 03 F0 8C F9 17 E0 22 46 06 21 ... -- CPU_WriteMem(564 bytes @ 0x20001000)  returns 0x234 (0008ms, 0599ms total)
T205C 001:067 JLINK_WriteReg(R0, 0x00026000)  returns 0x00 (0000ms, 0599ms total)
T205C 001:067 JLINK_WriteReg(R1, 0x00001000)  returns 0x00 (0000ms, 0599ms total)
T205C 001:067 JLINK_WriteReg(R2, 0x20000234)  returns 0x00 (0000ms, 0599ms total)
T205C 001:067 JLINK_WriteReg(R3, 0x00000000)  returns 0x00 (0000ms, 0599ms total)
T205C 001:067 JLINK_WriteReg(R4, 0x00000000)  returns 0x00 (0000ms, 0599ms total)
T205C 001:067 JLINK_WriteReg(R5, 0x00000000)  returns 0x00 (0000ms, 0599ms total)
T205C 001:067 JLINK_WriteReg(R6, 0x00000000)  returns 0x00 (0000ms, 0599ms total)
T205C 001:067 JLINK_WriteReg(R7, 0x00000000)  returns 0x00 (0000ms, 0599ms total)
T205C 001:067 JLINK_WriteReg(R8, 0x00000000)  returns 0x00 (0000ms, 0599ms total)
